T824C 000:007.337   SEGGER J-Link V6.98 Log File
T824C 000:007.465   DLL Compiled: Mar  2 2021 15:48:59
T824C 000:007.482   Logging started @ 2025-04-23 05:29
T824C 000:007.500 - 7.508ms
T824C 000:007.522 JLINK_SetWarnOutHandler(...)
T824C 000:007.541 - 0.027ms
T824C 000:007.586 JLINK_OpenEx(...)
T824C 000:010.950   Firmware: J-Link V9 compiled Dec  8 2023 20:16:22
T824C 000:011.742   Firmware: J-Link V9 compiled Dec  8 2023 20:16:22
T824C 000:011.887   Decompressing FW timestamp took 90 us
T824C 000:021.189   Hardware: V9.70
T824C 000:021.229   S/N: 602718643
T824C 000:021.254   OEM: SEGGER
T824C 000:021.279   Feature(s): GDB, RDI, FlashBP, FlashDL, JFlash
T824C 000:023.837   TELNET listener socket opened on port 19021
T824C 000:023.912   WEBSRV Starting webserver
T824C 000:024.073   WEBSRV Webserver running on local port 19080
T824C 000:024.100 - 16.521ms returns "O.K."
T824C 000:024.124 JLINK_GetEmuCaps()
T824C 000:024.141 - 0.025ms returns 0xB9FF7BBF
T824C 000:024.161 JLINK_TIF_GetAvailable(...)
T824C 000:024.806 - 0.654ms
T824C 000:024.827 JLINK_SetErrorOutHandler(...)
T824C 000:024.844 - 0.024ms
T824C 000:024.877 JLINK_ExecCommand("ProjectFile = "C:\Users\18800\Desktop\Project\05_Software\01_Source_Code\MDK-ARM\JLinkSettings.ini"", ...). 
T824C 000:030.472   Ref file found at: D:\Keil_v5\ARM\Segger\JLinkDevices.ref
T824C 000:030.637   XML referenced by ref file: C:\Program Files (x86)\SEGGER\JLink\JLinkDevices.xml
T824C 000:031.091   C:\Program Files (x86)\SEGGER\JLink\JLinkDevices.xml evaluated successfully.
T824C 000:070.261 - 45.395ms returns 0x00
T824C 000:072.404 JLINK_ExecCommand("Device = STM32F411CEUx", ...). 
T824C 000:074.088   Device "STM32F411CE" selected.
T824C 000:074.317 - 1.898ms returns 0x00
T824C 000:074.342 JLINK_GetHardwareVersion()
T824C 000:074.359 - 0.025ms returns 97000
T824C 000:074.379 JLINK_GetDLLVersion()
T824C 000:074.395 - 0.024ms returns 69800
T824C 000:074.412 JLINK_GetOEMString(...)
T824C 000:074.434 JLINK_GetFirmwareString(...)
T824C 000:074.451 - 0.024ms
T824C 000:079.247 JLINK_GetDLLVersion()
T824C 000:079.271 - 0.032ms returns 69800
T824C 000:079.289 JLINK_GetCompileDateTime()
T824C 000:079.305 - 0.024ms
T824C 000:080.660 JLINK_GetFirmwareString(...)
T824C 000:080.683 - 0.031ms
T824C 000:082.043 JLINK_GetHardwareVersion()
T824C 000:082.066 - 0.031ms returns 97000
T824C 000:083.418 JLINK_GetSN()
T824C 000:083.441 - 0.032ms returns 602718643
T824C 000:084.855 JLINK_GetOEMString(...)
T824C 000:087.668 JLINK_TIF_Select(JLINKARM_TIF_SWD)
T824C 000:090.135 - 2.481ms returns 0x00
T824C 000:090.160 JLINK_HasError()
T824C 000:090.189 JLINK_SetSpeed(5000)
T824C 000:090.760 - 0.586ms
T824C 000:090.787 JLINK_GetId()
T824C 000:094.917   Found SW-DP with ID 0x2BA01477
T824C 000:138.300   Found SW-DP with ID 0x2BA01477
T824C 000:145.005   DPIDR: 0x2BA01477
T824C 000:146.354   Scanning AP map to find all available APs
T824C 000:149.040   AP[1]: Stopped AP scan as end of AP map has been reached
T824C 000:150.404   AP[0]: AHB-AP (IDR: 0x24770011)
T824C 000:151.929   Iterating through AP map to find AHB-AP to use
T824C 000:154.890   AP[0]: Core found
T824C 000:156.839   AP[0]: AHB-AP ROM base: 0xE00FF000
T824C 000:158.987   CPUID register: 0x410FC241. Implementer code: 0x41 (ARM)
T824C 000:160.467   Found Cortex-M4 r0p1, Little endian.
T824C 000:263.184   -- Max. mem block: 0x00010C20
T824C 000:263.806   CPU_ReadMem(4 bytes @ 0xE000EDF0)
T824C 000:264.542   CPU_ReadMem(4 bytes @ 0xE0002000)
T824C 000:267.437   FPUnit: 6 code (BP) slots and 2 literal slots
T824C 000:267.470   CPU_ReadMem(4 bytes @ 0xE000EDFC)
T824C 000:268.210   CPU_WriteMem(4 bytes @ 0xE000EDFC)
T824C 000:268.937   CPU_ReadMem(4 bytes @ 0xE0001000)
T824C 000:269.678   CPU_WriteMem(4 bytes @ 0xE0001000)
T824C 000:270.459   CPU_ReadMem(4 bytes @ 0xE000ED88)
T824C 000:271.165   CPU_WriteMem(4 bytes @ 0xE000ED88)
T824C 000:271.934   CPU_ReadMem(4 bytes @ 0xE000ED88)
T824C 000:272.658   CPU_WriteMem(4 bytes @ 0xE000ED88)
T824C 000:274.850   CoreSight components:
T824C 000:276.225   ROMTbl[0] @ E00FF000
T824C 000:276.297   CPU_ReadMem(64 bytes @ 0xE00FF000)
T824C 000:277.313   CPU_ReadMem(32 bytes @ 0xE000EFE0)
T824C 000:279.540   ROMTbl[0][0]: E000E000, CID: B105E00D, PID: 000BB00C SCS-M7
T824C 000:279.572   CPU_ReadMem(32 bytes @ 0xE0001FE0)
T824C 000:282.126   ROMTbl[0][1]: E0001000, CID: B105E00D, PID: 003BB002 DWT
T824C 000:282.158   CPU_ReadMem(32 bytes @ 0xE0002FE0)
T824C 000:284.367   ROMTbl[0][2]: E0002000, CID: B105E00D, PID: 002BB003 FPB
T824C 000:284.413   CPU_ReadMem(32 bytes @ 0xE0000FE0)
T824C 000:286.724   ROMTbl[0][3]: E0000000, CID: B105E00D, PID: 003BB001 ITM
T824C 000:286.757   CPU_ReadMem(32 bytes @ 0xE0040FE0)
T824C 000:288.903   ROMTbl[0][4]: E0040000, CID: B105900D, PID: 000BB9A1 TPIU
T824C 000:288.935   CPU_ReadMem(32 bytes @ 0xE0041FE0)
T824C 000:291.185   ROMTbl[0][5]: E0041000, CID: B105900D, PID: 000BB925 ETM
T824C 000:291.859 - 201.082ms returns 0x2BA01477
T824C 000:291.887 JLINK_GetDLLVersion()
T824C 000:291.904 - 0.024ms returns 69800
T824C 000:291.922 JLINK_CORE_GetFound()
T824C 000:291.939 - 0.024ms returns 0xE0000FF
T824C 000:291.983 JLINK_GetDebugInfo(0x100 = JLINKARM_ROM_TABLE_ADDR_INDEX)
T824C 000:292.001   Value=0xE00FF000
T824C 000:292.024 - 0.049ms returns 0
T824C 000:293.397 JLINK_GetDebugInfo(0x100 = JLINKARM_ROM_TABLE_ADDR_INDEX)
T824C 000:293.420   Value=0xE00FF000
T824C 000:293.444 - 0.055ms returns 0
T824C 000:293.461 JLINK_GetDebugInfo(0x101 = JLINKARM_DEBUG_INFO_ETM_ADDR_INDEX)
T824C 000:293.478   Value=0xE0041000
T824C 000:293.501 - 0.047ms returns 0
T824C 000:293.519 JLINK_ReadMemEx(0xE0041FD0, 0x20 Bytes, Flags = 0x02000004)
T824C 000:293.551   CPU_ReadMem(32 bytes @ 0xE0041FD0)
T824C 000:294.421   Data:  04 00 00 00 00 00 00 00 00 00 00 00 00 00 00 00 ...
T824C 000:294.452 - 0.941ms returns 32 (0x20)
T824C 000:294.470 JLINK_GetDebugInfo(0x102 = JLINKARM_DEBUG_INFO_MTB_ADDR_INDEX)
T824C 000:294.487   Value=0x00000000
T824C 000:294.511 - 0.048ms returns 0
T824C 000:294.527 JLINK_GetDebugInfo(0x103 = JLINKARM_DEBUG_INFO_TPIU_ADDR_INDEX)
T824C 000:294.543   Value=0xE0040000
T824C 000:294.567 - 0.047ms returns 0
T824C 000:294.584 JLINK_GetDebugInfo(0x104 = JLINKARM_DEBUG_INFO_ITM_ADDR_INDEX)
T824C 000:294.600   Value=0xE0000000
T824C 000:294.624 - 0.047ms returns 0
T824C 000:294.640 JLINK_GetDebugInfo(0x105 = JLINKARM_DEBUG_INFO_DWT_ADDR_INDEX)
T824C 000:294.656   Value=0xE0001000
T824C 000:294.680 - 0.047ms returns 0
T824C 000:294.697 JLINK_GetDebugInfo(0x106 = JLINKARM_DEBUG_INFO_FPB_ADDR_INDEX)
T824C 000:294.713   Value=0xE0002000
T824C 000:294.737 - 0.047ms returns 0
T824C 000:294.753 JLINK_GetDebugInfo(0x107 = JLINKARM_DEBUG_INFO_NVIC_ADDR_INDEX)
T824C 000:294.769   Value=0xE000E000
T824C 000:294.793 - 0.047ms returns 0
T824C 000:294.810 JLINK_GetDebugInfo(0x10C = JLINKARM_DEBUG_INFO_DBG_ADDR_INDEX)
T824C 000:294.826   Value=0xE000EDF0
T824C 000:294.850 - 0.047ms returns 0
T824C 000:294.866 JLINK_GetDebugInfo(0x01 = Unknown)
T824C 000:294.883   Value=0x00000001
T824C 000:294.908 - 0.049ms returns 0
T824C 000:294.925 JLINK_ReadMemU32(0xE000ED00, 0x1 Items)
T824C 000:294.944   CPU_ReadMem(4 bytes @ 0xE000ED00)
T824C 000:295.659   Data:  41 C2 0F 41
T824C 000:295.685   Debug reg: CPUID
T824C 000:295.709 - 0.792ms returns 1 (0x1)
T824C 000:295.727 JLINK_GetDebugInfo(0x10F = JLINKARM_DEBUG_INFO_HAS_CORTEX_M_SECURITY_EXT_INDEX)
T824C 000:295.743   Value=0x00000000
T824C 000:295.767 - 0.048ms returns 0
T824C 000:295.784 JLINK_HasError()
T824C 000:295.801 JLINK_SetResetType(JLINKARM_CM3_RESET_TYPE_NORMAL)
T824C 000:295.818 - 0.024ms returns JLINKARM_CM3_RESET_TYPE_NORMAL
T824C 000:295.835 JLINK_Reset()
T824C 000:295.861   CPU is running
T824C 000:295.885   CPU_WriteMem(4 bytes @ 0xE000EDF0)
T824C 000:296.550   CPU is running
T824C 000:296.576   CPU_WriteMem(4 bytes @ 0xE000EDFC)
T824C 000:299.395   Reset: Halt core after reset via DEMCR.VC_CORERESET.
T824C 000:302.507   Reset: Reset device via AIRCR.SYSRESETREQ.
T824C 000:302.539   CPU is running
T824C 000:302.564   CPU_WriteMem(4 bytes @ 0xE000ED0C)
T824C 000:356.098   CPU_ReadMem(4 bytes @ 0xE000EDF0)
T824C 000:356.817   CPU_ReadMem(4 bytes @ 0xE000EDF0)
T824C 000:357.543   CPU is running
T824C 000:357.569   CPU_WriteMem(4 bytes @ 0xE000EDF0)
T824C 000:358.292   CPU is running
T824C 000:358.317   CPU_WriteMem(4 bytes @ 0xE000EDFC)
T824C 000:365.162   CPU_ReadMem(4 bytes @ 0xE000EDF0)
T824C 000:368.505   CPU_WriteMem(4 bytes @ 0xE0002000)
T824C 000:369.189   CPU_ReadMem(4 bytes @ 0xE000EDFC)
T824C 000:369.921   CPU_ReadMem(4 bytes @ 0xE0001000)
T824C 000:370.671 - 74.848ms
T824C 000:370.718 JLINK_Halt()
T824C 000:370.734 - 0.024ms returns 0x00
T824C 000:370.752 JLINK_ReadMemU32(0xE000EDF0, 0x1 Items)
T824C 000:370.771   CPU_ReadMem(4 bytes @ 0xE000EDF0)
T824C 000:371.412   Data:  03 00 03 00
T824C 000:371.443   Debug reg: DHCSR
T824C 000:371.467 - 0.723ms returns 1 (0x1)
T824C 000:371.485 JLINK_WriteU32_64(0xE000EDF0, 0xA05F0003)
T824C 000:371.502   Debug reg: DHCSR
T824C 000:371.697   CPU_WriteMem(4 bytes @ 0xE000EDF0)
T824C 000:372.437 - 0.961ms returns 0 (0x00000000)
T824C 000:372.457 JLINK_WriteU32_64(0xE000EDFC, 0x01000000)
T824C 000:372.474   Debug reg: DEMCR
T824C 000:372.501   CPU_WriteMem(4 bytes @ 0xE000EDFC)
T824C 000:373.186 - 0.750ms returns 0 (0x00000000)
T824C 000:380.167 JLINK_GetHWStatus(...)
T824C 000:381.095 - 0.963ms returns 0
T824C 000:386.015 JLINK_GetNumBPUnits(Type = 0xFFFFFF00)
T824C 000:386.044 - 0.037ms returns 0x06
T824C 000:386.061 JLINK_GetNumBPUnits(Type = 0xF0)
T824C 000:386.078 - 0.024ms returns 0x2000
T824C 000:386.095 JLINK_GetNumWPUnits()
T824C 000:386.111 - 0.024ms returns 4
T824C 000:390.535 JLINK_GetSpeed()
T824C 000:390.589 - 0.062ms returns 4000
T824C 000:394.477 JLINK_ReadMemU32(0xE000E004, 0x1 Items)
T824C 000:394.511   CPU_ReadMem(4 bytes @ 0xE000E004)
T824C 000:395.164   Data:  02 00 00 00
T824C 000:395.195 - 0.726ms returns 1 (0x1)
T824C 000:395.217 JLINK_ReadMemU32(0xE000E004, 0x1 Items)
T824C 000:395.237   CPU_ReadMem(4 bytes @ 0xE000E004)
T824C 000:395.908   Data:  02 00 00 00
T824C 000:395.936 - 0.727ms returns 1 (0x1)
T824C 000:395.956 JLINK_WriteMemEx(0xE0001000, 0x0000001C Bytes, Flags = 0x02000004)
T824C 000:395.973   Data:  01 00 00 00 00 00 00 00 00 00 00 00 00 00 00 00 ...
T824C 000:396.000   CPU_WriteMem(28 bytes @ 0xE0001000)
T824C 000:396.755 - 0.812ms returns 0x1C
T824C 000:396.785 JLINK_Halt()
T824C 000:396.801 - 0.024ms returns 0x00
T824C 000:396.820 JLINK_IsHalted()
T824C 000:396.836 - 0.024ms returns TRUE
T824C 000:399.041 JLINK_WriteMem(0x20000000, 0x184 Bytes, ...)
T824C 000:399.061   Data:  00 BE 0A E0 0D 78 2D 06 68 40 08 24 40 00 00 D3 ...
T824C 000:399.234   CPU_WriteMem(388 bytes @ 0x20000000)
T824C 000:401.254 - 2.224ms returns 0x184
T824C 000:401.287 JLINK_HasError()
T824C 000:401.305 JLINK_WriteReg(R0, 0x08000000)
T824C 000:401.323 - 0.026ms returns 0
T824C 000:401.340 JLINK_WriteReg(R1, 0x017D7840)
T824C 000:401.357 - 0.024ms returns 0
T824C 000:401.374 JLINK_WriteReg(R2, 0x00000001)
T824C 000:401.390 - 0.024ms returns 0
T824C 000:401.407 JLINK_WriteReg(R3, 0x00000000)
T824C 000:401.423 - 0.024ms returns 0
T824C 000:401.440 JLINK_WriteReg(R4, 0x00000000)
T824C 000:401.456 - 0.024ms returns 0
T824C 000:401.473 JLINK_WriteReg(R5, 0x00000000)
T824C 000:401.489 - 0.024ms returns 0
T824C 000:401.506 JLINK_WriteReg(R6, 0x00000000)
T824C 000:401.522 - 0.024ms returns 0
T824C 000:401.539 JLINK_WriteReg(R7, 0x00000000)
T824C 000:401.555 - 0.024ms returns 0
T824C 000:401.571 JLINK_WriteReg(R8, 0x00000000)
T824C 000:401.595 - 0.031ms returns 0
T824C 000:401.611 JLINK_WriteReg(R9, 0x20000180)
T824C 000:401.627 - 0.024ms returns 0
T824C 000:401.644 JLINK_WriteReg(R10, 0x00000000)
T824C 000:401.660 - 0.024ms returns 0
T824C 000:401.677 JLINK_WriteReg(R11, 0x00000000)
T824C 000:401.693 - 0.024ms returns 0
T824C 000:401.710 JLINK_WriteReg(R12, 0x00000000)
T824C 000:401.726 - 0.024ms returns 0
T824C 000:401.743 JLINK_WriteReg(R13 (SP), 0x20001000)
T824C 000:401.759 - 0.024ms returns 0
T824C 000:401.778 JLINK_WriteReg(R14, 0x20000001)
T824C 000:401.796 - 0.025ms returns 0
T824C 000:401.812 JLINK_WriteReg(R15 (PC), 0x20000054)
T824C 000:401.829 - 0.024ms returns 0
T824C 000:401.845 JLINK_WriteReg(XPSR, 0x01000000)
T824C 000:401.862 - 0.024ms returns 0
T824C 000:401.878 JLINK_WriteReg(MSP, 0x20001000)
T824C 000:401.894 - 0.024ms returns 0
T824C 000:401.911 JLINK_WriteReg(PSP, 0x20001000)
T824C 000:401.928 - 0.024ms returns 0
T824C 000:401.944 JLINK_WriteReg(CFBP, 0x00000000)
T824C 000:401.960 - 0.024ms returns 0
T824C 000:401.977 JLINK_SetBPEx(Addr = 0x20000000, Type = 0xFFFFFFF2)
T824C 000:401.999   CPU_ReadMem(2 bytes @ 0x20000000)
T824C 000:402.680 - 0.714ms returns 0x00000001
T824C 000:402.702 JLINK_Go()
T824C 000:402.720   CPU_WriteMem(2 bytes @ 0x20000000)
T824C 000:403.463   CPU_ReadMem(4 bytes @ 0xE0001000)
T824C 000:404.182   CPU_WriteMem(4 bytes @ 0xE0002008)
T824C 000:404.209   CPU_WriteMem(4 bytes @ 0xE000200C)
T824C 000:404.233   CPU_WriteMem(4 bytes @ 0xE0002010)
T824C 000:404.257   CPU_WriteMem(4 bytes @ 0xE0002014)
T824C 000:404.281   CPU_WriteMem(4 bytes @ 0xE0002018)
T824C 000:404.305   CPU_WriteMem(4 bytes @ 0xE000201C)
T824C 000:405.874   CPU_WriteMem(4 bytes @ 0xE0001004)
T824C 000:409.485 - 6.797ms
T824C 000:409.509 JLINK_IsHalted()
T824C 000:412.129   CPU_ReadMem(2 bytes @ 0x20000000)
T824C 000:412.819 - 3.334ms returns TRUE
T824C 000:412.869 JLINK_ReadReg(R15 (PC))
T824C 000:412.917 - 0.069ms returns 0x20000000
T824C 000:412.963 JLINK_ClrBPEx(BPHandle = 0x00000001)
T824C 000:413.007 - 0.066ms returns 0x00
T824C 000:413.053 JLINK_ReadReg(R0)
T824C 000:413.097 - 0.065ms returns 0x00000000
T824C 000:414.536 JLINK_HasError()
T824C 000:414.560 JLINK_WriteReg(R0, 0x08000000)
T824C 000:414.578 - 0.026ms returns 0
T824C 000:414.596 JLINK_WriteReg(R1, 0x00004000)
T824C 000:414.612 - 0.024ms returns 0
T824C 000:414.629 JLINK_WriteReg(R2, 0x000000FF)
T824C 000:414.645 - 0.024ms returns 0
T824C 000:414.662 JLINK_WriteReg(R3, 0x00000000)
T824C 000:414.678 - 0.024ms returns 0
T824C 000:414.695 JLINK_WriteReg(R4, 0x00000000)
T824C 000:414.711 - 0.024ms returns 0
T824C 000:414.728 JLINK_WriteReg(R5, 0x00000000)
T824C 000:414.744 - 0.024ms returns 0
T824C 000:414.761 JLINK_WriteReg(R6, 0x00000000)
T824C 000:414.777 - 0.024ms returns 0
T824C 000:414.794 JLINK_WriteReg(R7, 0x00000000)
T824C 000:414.810 - 0.024ms returns 0
T824C 000:414.826 JLINK_WriteReg(R8, 0x00000000)
T824C 000:414.843 - 0.024ms returns 0
T824C 000:414.859 JLINK_WriteReg(R9, 0x20000180)
T824C 000:414.876 - 0.024ms returns 0
T824C 000:414.892 JLINK_WriteReg(R10, 0x00000000)
T824C 000:414.909 - 0.024ms returns 0
T824C 000:414.925 JLINK_WriteReg(R11, 0x00000000)
T824C 000:414.942 - 0.024ms returns 0
T824C 000:414.959 JLINK_WriteReg(R12, 0x00000000)
T824C 000:414.975 - 0.024ms returns 0
T824C 000:414.991 JLINK_WriteReg(R13 (SP), 0x20001000)
T824C 000:415.008 - 0.024ms returns 0
T824C 000:415.025 JLINK_WriteReg(R14, 0x20000001)
T824C 000:415.041 - 0.024ms returns 0
T824C 000:415.058 JLINK_WriteReg(R15 (PC), 0x20000020)
T824C 000:415.077 - 0.028ms returns 0
T824C 000:415.095 JLINK_WriteReg(XPSR, 0x01000000)
T824C 000:415.111 - 0.024ms returns 0
T824C 000:415.128 JLINK_WriteReg(MSP, 0x20001000)
T824C 000:415.144 - 0.024ms returns 0
T824C 000:415.161 JLINK_WriteReg(PSP, 0x20001000)
T824C 000:415.177 - 0.028ms returns 0
T824C 000:415.198 JLINK_WriteReg(CFBP, 0x00000000)
T824C 000:415.215 - 0.024ms returns 0
T824C 000:415.232 JLINK_SetBPEx(Addr = 0x20000000, Type = 0xFFFFFFF2)
T824C 000:415.248 - 0.024ms returns 0x00000002
T824C 000:415.265 JLINK_Go()
T824C 000:415.285   CPU_ReadMem(4 bytes @ 0xE0001000)
T824C 000:418.629 - 3.376ms
T824C 000:418.651 JLINK_IsHalted()
T824C 000:421.379   CPU_ReadMem(2 bytes @ 0x20000000)
T824C 000:422.033 - 3.396ms returns TRUE
T824C 000:422.062 JLINK_ReadReg(R15 (PC))
T824C 000:422.080 - 0.026ms returns 0x20000000
T824C 000:422.098 JLINK_ClrBPEx(BPHandle = 0x00000002)
T824C 000:422.115 - 0.024ms returns 0x00
T824C 000:422.273 JLINK_ReadReg(R0)
T824C 000:422.336 - 0.070ms returns 0x00000001
T824C 000:422.353 JLINK_HasError()
T824C 000:422.370 JLINK_WriteReg(R0, 0x08000000)
T824C 000:422.389 - 0.028ms returns 0
T824C 000:422.408 JLINK_WriteReg(R1, 0x00004000)
T824C 000:422.424 - 0.024ms returns 0
T824C 000:422.441 JLINK_WriteReg(R2, 0x000000FF)
T824C 000:422.457 - 0.024ms returns 0
T824C 000:422.474 JLINK_WriteReg(R3, 0x00000000)
T824C 000:422.490 - 0.024ms returns 0
T824C 000:422.507 JLINK_WriteReg(R4, 0x00000000)
T824C 000:422.523 - 0.024ms returns 0
T824C 000:422.539 JLINK_WriteReg(R5, 0x00000000)
T824C 000:422.556 - 0.024ms returns 0
T824C 000:422.572 JLINK_WriteReg(R6, 0x00000000)
T824C 000:422.589 - 0.024ms returns 0
T824C 000:422.605 JLINK_WriteReg(R7, 0x00000000)
T824C 000:422.622 - 0.024ms returns 0
T824C 000:422.638 JLINK_WriteReg(R8, 0x00000000)
T824C 000:422.654 - 0.024ms returns 0
T824C 000:422.671 JLINK_WriteReg(R9, 0x20000180)
T824C 000:422.687 - 0.024ms returns 0
T824C 000:422.704 JLINK_WriteReg(R10, 0x00000000)
T824C 000:422.720 - 0.024ms returns 0
T824C 000:422.737 JLINK_WriteReg(R11, 0x00000000)
T824C 000:422.753 - 0.024ms returns 0
T824C 000:422.770 JLINK_WriteReg(R12, 0x00000000)
T824C 000:422.786 - 0.024ms returns 0
T824C 000:422.803 JLINK_WriteReg(R13 (SP), 0x20001000)
T824C 000:422.819 - 0.024ms returns 0
T824C 000:422.836 JLINK_WriteReg(R14, 0x20000001)
T824C 000:422.852 - 0.024ms returns 0
T824C 000:422.872 JLINK_WriteReg(R15 (PC), 0x200000C0)
T824C 000:422.888 - 0.024ms returns 0
T824C 000:422.905 JLINK_WriteReg(XPSR, 0x01000000)
T824C 000:422.921 - 0.024ms returns 0
T824C 000:422.938 JLINK_WriteReg(MSP, 0x20001000)
T824C 000:422.954 - 0.024ms returns 0
T824C 000:422.970 JLINK_WriteReg(PSP, 0x20001000)
T824C 000:422.987 - 0.028ms returns 0
T824C 000:423.008 JLINK_WriteReg(CFBP, 0x00000000)
T824C 000:423.024 - 0.024ms returns 0
T824C 000:423.041 JLINK_SetBPEx(Addr = 0x20000000, Type = 0xFFFFFFF2)
T824C 000:423.057 - 0.024ms returns 0x00000003
T824C 000:423.074 JLINK_Go()
T824C 000:423.093   CPU_ReadMem(4 bytes @ 0xE0001000)
T824C 000:426.424 - 3.364ms
T824C 000:426.449 JLINK_IsHalted()
T824C 000:427.189 - 0.774ms returns FALSE
T824C 000:427.250 JLINK_HasError()
T824C 000:446.264 JLINK_IsHalted()
T824C 000:447.094 - 0.854ms returns FALSE
T824C 000:447.132 JLINK_HasError()
T824C 000:448.288 JLINK_IsHalted()
T824C 000:449.067 - 0.820ms returns FALSE
T824C 000:449.139 JLINK_HasError()
T824C 000:451.257 JLINK_IsHalted()
T824C 000:451.936 - 0.693ms returns FALSE
T824C 000:451.961 JLINK_HasError()
T824C 000:457.014 JLINK_IsHalted()
T824C 000:457.678 - 0.683ms returns FALSE
T824C 000:457.710 JLINK_HasError()
T824C 000:459.255 JLINK_IsHalted()
T824C 000:459.927 - 0.691ms returns FALSE
T824C 000:459.959 JLINK_HasError()
T824C 000:463.891 JLINK_IsHalted()
T824C 000:464.554 - 0.677ms returns FALSE
T824C 000:464.579 JLINK_HasError()
T824C 000:465.895 JLINK_IsHalted()
T824C 000:466.673 - 0.796ms returns FALSE
T824C 000:466.703 JLINK_HasError()
T824C 000:469.895 JLINK_IsHalted()
T824C 000:470.554 - 0.675ms returns FALSE
T824C 000:470.581 JLINK_HasError()
T824C 000:471.898 JLINK_IsHalted()
T824C 000:472.571 - 0.685ms returns FALSE
T824C 000:472.595 JLINK_HasError()
T824C 000:473.899 JLINK_IsHalted()
T824C 000:474.544 - 0.661ms returns FALSE
T824C 000:474.573 JLINK_HasError()
T824C 000:477.416 JLINK_IsHalted()
T824C 000:478.184 - 0.798ms returns FALSE
T824C 000:478.243 JLINK_HasError()
T824C 000:479.410 JLINK_IsHalted()
T824C 000:480.173 - 0.779ms returns FALSE
T824C 000:480.202 JLINK_HasError()
T824C 000:481.411 JLINK_IsHalted()
T824C 000:482.195 - 0.823ms returns FALSE
T824C 000:482.265 JLINK_HasError()
T824C 000:483.927 JLINK_IsHalted()
T824C 000:484.762 - 0.853ms returns FALSE
T824C 000:484.793 JLINK_HasError()
T824C 000:490.111 JLINK_IsHalted()
T824C 000:490.798 - 0.702ms returns FALSE
T824C 000:490.825 JLINK_HasError()
T824C 000:495.509 JLINK_IsHalted()
T824C 000:496.179 - 0.702ms returns FALSE
T824C 000:496.241 JLINK_HasError()
T824C 000:497.914 JLINK_IsHalted()
T824C 000:498.665 - 0.764ms returns FALSE
T824C 000:498.695 JLINK_HasError()
T824C 000:503.121 JLINK_IsHalted()
T824C 000:503.938 - 0.851ms returns FALSE
T824C 000:504.006 JLINK_HasError()
T824C 000:505.682 JLINK_IsHalted()
T824C 000:506.446 - 0.779ms returns FALSE
T824C 000:506.475 JLINK_HasError()
T824C 000:508.930 JLINK_IsHalted()
T824C 000:509.678 - 0.764ms returns FALSE
T824C 000:509.706 JLINK_HasError()
T824C 000:511.182 JLINK_IsHalted()
T824C 000:511.922 - 0.758ms returns FALSE
T824C 000:511.953 JLINK_HasError()
T824C 000:513.228 JLINK_IsHalted()
T824C 000:513.922 - 0.709ms returns FALSE
T824C 000:513.949 JLINK_HasError()
T824C 000:515.733 JLINK_IsHalted()
T824C 000:516.448 - 0.749ms returns FALSE
T824C 000:516.512 JLINK_HasError()
T824C 000:520.826 JLINK_IsHalted()
T824C 000:521.551 - 0.739ms returns FALSE
T824C 000:521.576 JLINK_HasError()
T824C 000:522.882 JLINK_IsHalted()
T824C 000:523.572 - 0.705ms returns FALSE
T824C 000:523.600 JLINK_HasError()
T824C 000:526.477 JLINK_IsHalted()
T824C 000:527.308 - 0.849ms returns FALSE
T824C 000:527.339 JLINK_HasError()
T824C 000:528.463 JLINK_IsHalted()
T824C 000:529.183 - 0.738ms returns FALSE
T824C 000:529.214 JLINK_HasError()
T824C 000:531.346 JLINK_IsHalted()
T824C 000:532.055 - 0.723ms returns FALSE
T824C 000:532.081 JLINK_HasError()
T824C 000:536.158 JLINK_IsHalted()
T824C 000:536.920 - 0.777ms returns FALSE
T824C 000:536.946 JLINK_HasError()
T824C 000:539.442 JLINK_IsHalted()
T824C 000:540.182 - 0.758ms returns FALSE
T824C 000:540.213 JLINK_HasError()
T824C 000:542.554 JLINK_IsHalted()
T824C 000:543.303 - 0.764ms returns FALSE
T824C 000:543.330 JLINK_HasError()
T824C 000:545.268 JLINK_IsHalted()
T824C 000:545.923 - 0.664ms returns FALSE
T824C 000:545.942 JLINK_HasError()
T824C 000:547.536 JLINK_IsHalted()
T824C 000:548.297 - 0.774ms returns FALSE
T824C 000:548.321 JLINK_HasError()
T824C 000:550.871 JLINK_IsHalted()
T824C 000:551.553 - 0.712ms returns FALSE
T824C 000:551.610 JLINK_HasError()
T824C 000:552.868 JLINK_IsHalted()
T824C 000:553.544 - 0.684ms returns FALSE
T824C 000:553.562 JLINK_HasError()
T824C 000:555.342 JLINK_IsHalted()
T824C 000:556.057 - 0.723ms returns FALSE
T824C 000:556.075 JLINK_HasError()
T824C 000:558.368 JLINK_IsHalted()
T824C 000:559.204 - 0.874ms returns FALSE
T824C 000:559.271 JLINK_HasError()
T824C 000:561.353 JLINK_IsHalted()
T824C 000:562.064 - 0.734ms returns FALSE
T824C 000:562.114 JLINK_HasError()
T824C 000:563.887 JLINK_IsHalted()
T824C 000:564.687 - 0.815ms returns FALSE
T824C 000:564.713 JLINK_HasError()
T824C 000:567.132 JLINK_IsHalted()
T824C 000:567.919 - 0.808ms returns FALSE
T824C 000:567.965 JLINK_HasError()
T824C 000:569.912 JLINK_IsHalted()
T824C 000:570.675 - 0.775ms returns FALSE
T824C 000:570.698 JLINK_HasError()
T824C 000:572.495 JLINK_IsHalted()
T824C 000:573.197 - 0.726ms returns FALSE
T824C 000:573.248 JLINK_HasError()
T824C 000:575.056 JLINK_IsHalted()
T824C 000:575.795 - 0.747ms returns FALSE
T824C 000:575.813 JLINK_HasError()
T824C 000:577.357 JLINK_IsHalted()
T824C 000:578.047 - 0.713ms returns FALSE
T824C 000:578.094 JLINK_HasError()
T824C 000:579.916 JLINK_IsHalted()
T824C 000:580.713 - 0.809ms returns FALSE
T824C 000:580.735 JLINK_HasError()
T824C 000:584.026 JLINK_IsHalted()
T824C 000:584.806 - 0.789ms returns FALSE
T824C 000:584.825 JLINK_HasError()
T824C 000:586.120 JLINK_IsHalted()
T824C 000:586.787 - 0.675ms returns FALSE
T824C 000:586.805 JLINK_HasError()
T824C 000:588.640 JLINK_IsHalted()
T824C 000:589.446 - 0.830ms returns FALSE
T824C 000:589.496 JLINK_HasError()
T824C 000:591.139 JLINK_IsHalted()
T824C 000:591.912 - 0.782ms returns FALSE
T824C 000:591.930 JLINK_HasError()
T824C 000:593.241 JLINK_IsHalted()
T824C 000:594.038 - 0.818ms returns FALSE
T824C 000:594.082 JLINK_HasError()
T824C 000:595.253 JLINK_IsHalted()
T824C 000:595.912 - 0.667ms returns FALSE
T824C 000:595.934 JLINK_HasError()
T824C 000:598.255 JLINK_IsHalted()
T824C 000:598.929 - 0.683ms returns FALSE
T824C 000:598.951 JLINK_HasError()
T824C 000:600.275 JLINK_IsHalted()
T824C 000:600.925 - 0.659ms returns FALSE
T824C 000:600.944 JLINK_HasError()
T824C 000:602.857 JLINK_IsHalted()
T824C 000:603.579 - 0.745ms returns FALSE
T824C 000:603.617 JLINK_HasError()
T824C 000:605.951 JLINK_IsHalted()
T824C 000:606.673 - 0.735ms returns FALSE
T824C 000:606.697 JLINK_HasError()
T824C 000:607.944 JLINK_IsHalted()
T824C 000:608.688 - 0.766ms returns FALSE
T824C 000:608.734 JLINK_HasError()
T824C 000:610.464 JLINK_IsHalted()
T824C 000:611.179 - 0.728ms returns FALSE
T824C 000:611.203 JLINK_HasError()
T824C 000:613.591 JLINK_IsHalted()
T824C 000:614.327 - 0.745ms returns FALSE
T824C 000:614.346 JLINK_HasError()
T824C 000:615.653 JLINK_IsHalted()
T824C 000:616.444 - 0.814ms returns FALSE
T824C 000:616.493 JLINK_HasError()
T824C 000:617.823 JLINK_IsHalted()
T824C 000:618.560 - 0.765ms returns FALSE
T824C 000:618.599 JLINK_HasError()
T824C 000:620.894 JLINK_IsHalted()
T824C 000:621.711 - 0.838ms returns FALSE
T824C 000:621.743 JLINK_HasError()
T824C 000:623.703 JLINK_IsHalted()
T824C 000:624.446 - 0.774ms returns FALSE
T824C 000:624.506 JLINK_HasError()
T824C 000:625.703 JLINK_IsHalted()
T824C 000:626.451 - 0.776ms returns FALSE
T824C 000:626.525 JLINK_HasError()
T824C 000:629.695 JLINK_IsHalted()
T824C 000:630.442 - 0.783ms returns FALSE
T824C 000:630.511 JLINK_HasError()
T824C 000:631.718 JLINK_IsHalted()
T824C 000:632.433 - 0.738ms returns FALSE
T824C 000:632.481 JLINK_HasError()
T824C 000:633.702 JLINK_IsHalted()
T824C 000:634.449 - 0.778ms returns FALSE
T824C 000:634.507 JLINK_HasError()
T824C 000:636.710 JLINK_IsHalted()
T824C 000:637.445 - 0.762ms returns FALSE
T824C 000:637.498 JLINK_HasError()
T824C 000:638.701 JLINK_IsHalted()
T824C 000:639.442 - 0.764ms returns FALSE
T824C 000:639.491 JLINK_HasError()
T824C 000:640.700 JLINK_IsHalted()
T824C 000:641.432 - 0.756ms returns FALSE
T824C 000:641.481 JLINK_HasError()
T824C 000:642.706 JLINK_IsHalted()
T824C 000:643.599 - 0.922ms returns FALSE
T824C 000:643.655 JLINK_HasError()
T824C 000:645.874 JLINK_IsHalted()
T824C 000:646.673 - 0.813ms returns FALSE
T824C 000:646.698 JLINK_HasError()
T824C 000:648.002 JLINK_IsHalted()
T824C 000:648.821 - 0.844ms returns FALSE
T824C 000:648.872 JLINK_HasError()
T824C 000:649.993 JLINK_IsHalted()
T824C 000:650.672 - 0.693ms returns FALSE
T824C 000:650.697 JLINK_HasError()
T824C 000:653.000 JLINK_IsHalted()
T824C 000:653.690 - 0.700ms returns FALSE
T824C 000:653.710 JLINK_HasError()
T824C 000:655.027 JLINK_IsHalted()
T824C 000:655.824 - 0.837ms returns FALSE
T824C 000:655.894 JLINK_HasError()
T824C 000:657.017 JLINK_IsHalted()
T824C 000:657.663 - 0.658ms returns FALSE
T824C 000:657.686 JLINK_HasError()
T824C 000:659.020 JLINK_IsHalted()
T824C 000:659.675 - 0.669ms returns FALSE
T824C 000:659.704 JLINK_HasError()
T824C 000:663.016 JLINK_IsHalted()
T824C 000:663.672 - 0.672ms returns FALSE
T824C 000:663.700 JLINK_HasError()
T824C 000:665.035 JLINK_IsHalted()
T824C 000:665.823 - 0.819ms returns FALSE
T824C 000:665.881 JLINK_HasError()
T824C 000:667.020 JLINK_IsHalted()
T824C 000:667.672 - 0.665ms returns FALSE
T824C 000:667.697 JLINK_HasError()
T824C 000:670.021 JLINK_IsHalted()
T824C 000:670.803 - 0.795ms returns FALSE
T824C 000:670.828 JLINK_HasError()
T824C 000:672.135 JLINK_IsHalted()
T824C 000:672.821 - 0.699ms returns FALSE
T824C 000:672.846 JLINK_HasError()
T824C 000:674.137 JLINK_IsHalted()
T824C 000:674.937 - 0.812ms returns FALSE
T824C 000:674.961 JLINK_HasError()
T824C 000:677.131 JLINK_IsHalted()
T824C 000:677.804 - 0.705ms returns FALSE
T824C 000:677.864 JLINK_HasError()
T824C 000:679.249 JLINK_IsHalted()
T824C 000:679.925 - 0.699ms returns FALSE
T824C 000:679.973 JLINK_HasError()
T824C 000:681.270 JLINK_IsHalted()
T824C 000:681.924 - 0.668ms returns FALSE
T824C 000:681.951 JLINK_HasError()
T824C 000:683.267 JLINK_IsHalted()
T824C 000:683.933 - 0.681ms returns FALSE
T824C 000:683.959 JLINK_HasError()
T824C 000:686.290 JLINK_IsHalted()
T824C 000:687.062 - 0.800ms returns FALSE
T824C 000:687.118 JLINK_HasError()
T824C 000:688.363 JLINK_IsHalted()
T824C 000:689.063 - 0.711ms returns FALSE
T824C 000:689.086 JLINK_HasError()
T824C 000:691.322 JLINK_IsHalted()
T824C 000:692.069 - 0.761ms returns FALSE
T824C 000:692.096 JLINK_HasError()
T824C 000:694.391 JLINK_IsHalted()
T824C 000:695.167 - 0.789ms returns FALSE
T824C 000:695.192 JLINK_HasError()
T824C 000:696.806 JLINK_IsHalted()
T824C 000:697.544 - 0.753ms returns FALSE
T824C 000:697.572 JLINK_HasError()
T824C 000:699.335 JLINK_IsHalted()
T824C 000:700.068 - 0.763ms returns FALSE
T824C 000:700.124 JLINK_HasError()
T824C 000:702.333 JLINK_IsHalted()
T824C 000:703.045 - 0.727ms returns FALSE
T824C 000:703.072 JLINK_HasError()
T824C 000:704.348 JLINK_IsHalted()
T824C 000:705.064 - 0.742ms returns FALSE
T824C 000:705.117 JLINK_HasError()
T824C 000:706.365 JLINK_IsHalted()
T824C 000:707.059 - 0.710ms returns FALSE
T824C 000:707.088 JLINK_HasError()
T824C 000:709.374 JLINK_IsHalted()
T824C 000:710.045 - 0.684ms returns FALSE
T824C 000:710.071 JLINK_HasError()
T824C 000:712.122 JLINK_IsHalted()
T824C 000:712.802 - 0.705ms returns FALSE
T824C 000:712.854 JLINK_HasError()
T824C 000:714.270 JLINK_IsHalted()
T824C 000:715.042 - 0.785ms returns FALSE
T824C 000:715.066 JLINK_HasError()
T824C 000:716.239 JLINK_IsHalted()
T824C 000:716.935 - 0.728ms returns FALSE
T824C 000:716.994 JLINK_HasError()
T824C 000:718.231 JLINK_IsHalted()
T824C 000:718.922 - 0.704ms returns FALSE
T824C 000:718.947 JLINK_HasError()
T824C 000:720.247 JLINK_IsHalted()
T824C 000:721.037 - 0.799ms returns FALSE
T824C 000:721.056 JLINK_HasError()
T824C 000:722.251 JLINK_IsHalted()
T824C 000:723.006 - 0.764ms returns FALSE
T824C 000:723.026 JLINK_HasError()
T824C 000:724.325 JLINK_IsHalted()
T824C 000:725.068 - 0.765ms returns FALSE
T824C 000:725.114 JLINK_HasError()
T824C 000:726.212 JLINK_IsHalted()
T824C 000:726.931 - 0.727ms returns FALSE
T824C 000:726.949 JLINK_HasError()
T824C 000:728.221 JLINK_IsHalted()
T824C 000:728.933 - 0.720ms returns FALSE
T824C 000:728.951 JLINK_HasError()
T824C 000:730.220 JLINK_IsHalted()
T824C 000:730.944 - 0.738ms returns FALSE
T824C 000:730.968 JLINK_HasError()
T824C 000:732.221 JLINK_IsHalted()
T824C 000:733.037 - 0.824ms returns FALSE
T824C 000:733.055 JLINK_HasError()
T824C 000:734.220 JLINK_IsHalted()
T824C 000:736.911   CPU_ReadMem(2 bytes @ 0x20000000)
T824C 000:737.742 - 3.567ms returns TRUE
T824C 000:737.818 JLINK_ReadReg(R15 (PC))
T824C 000:737.872 - 0.076ms returns 0x20000000
T824C 000:737.919 JLINK_ClrBPEx(BPHandle = 0x00000003)
T824C 000:737.951 - 0.041ms returns 0x00
T824C 000:737.971 JLINK_ReadReg(R0)
T824C 000:737.991 - 0.029ms returns 0x00000000
T824C 000:738.638 JLINK_HasError()
T824C 000:738.668 JLINK_WriteReg(R0, 0x00000001)
T824C 000:738.690 - 0.031ms returns 0
T824C 000:738.709 JLINK_WriteReg(R1, 0x00004000)
T824C 000:738.726 - 0.026ms returns 0
T824C 000:738.744 JLINK_WriteReg(R2, 0x000000FF)
T824C 000:738.761 - 0.025ms returns 0
T824C 000:738.779 JLINK_WriteReg(R3, 0x00000000)
T824C 000:738.796 - 0.025ms returns 0
T824C 000:738.813 JLINK_WriteReg(R4, 0x00000000)
T824C 000:738.830 - 0.025ms returns 0
T824C 000:738.848 JLINK_WriteReg(R5, 0x00000000)
T824C 000:738.865 - 0.025ms returns 0
T824C 000:738.882 JLINK_WriteReg(R6, 0x00000000)
T824C 000:738.900 - 0.025ms returns 0
T824C 000:738.917 JLINK_WriteReg(R7, 0x00000000)
T824C 000:738.934 - 0.025ms returns 0
T824C 000:738.951 JLINK_WriteReg(R8, 0x00000000)
T824C 000:738.968 - 0.025ms returns 0
T824C 000:738.986 JLINK_WriteReg(R9, 0x20000180)
T824C 000:739.003 - 0.025ms returns 0
T824C 000:739.020 JLINK_WriteReg(R10, 0x00000000)
T824C 000:739.037 - 0.025ms returns 0
T824C 000:739.055 JLINK_WriteReg(R11, 0x00000000)
T824C 000:739.072 - 0.030ms returns 0
T824C 000:739.095 JLINK_WriteReg(R12, 0x00000000)
T824C 000:739.112 - 0.025ms returns 0
T824C 000:739.129 JLINK_WriteReg(R13 (SP), 0x20001000)
T824C 000:739.147 - 0.026ms returns 0
T824C 000:739.165 JLINK_WriteReg(R14, 0x20000001)
T824C 000:739.219 - 0.063ms returns 0
T824C 000:739.237 JLINK_WriteReg(R15 (PC), 0x20000086)
T824C 000:739.254 - 0.025ms returns 0
T824C 000:739.272 JLINK_WriteReg(XPSR, 0x01000000)
T824C 000:739.289 - 0.025ms returns 0
T824C 000:739.307 JLINK_WriteReg(MSP, 0x20001000)
T824C 000:739.324 - 0.025ms returns 0
T824C 000:739.341 JLINK_WriteReg(PSP, 0x20001000)
T824C 000:739.358 - 0.025ms returns 0
T824C 000:739.376 JLINK_WriteReg(CFBP, 0x00000000)
T824C 000:739.392 - 0.025ms returns 0
T824C 000:739.410 JLINK_SetBPEx(Addr = 0x20000000, Type = 0xFFFFFFF2)
T824C 000:739.428 - 0.026ms returns 0x00000004
T824C 000:739.446 JLINK_Go()
T824C 000:739.472   CPU_ReadMem(4 bytes @ 0xE0001000)
T824C 000:742.869 - 3.443ms
T824C 000:742.902 JLINK_IsHalted()
T824C 000:745.655   CPU_ReadMem(2 bytes @ 0x20000000)
T824C 000:746.430 - 3.541ms returns TRUE
T824C 000:746.455 JLINK_ReadReg(R15 (PC))
T824C 000:746.475 - 0.028ms returns 0x20000000
T824C 000:746.493 JLINK_ClrBPEx(BPHandle = 0x00000004)
T824C 000:746.510 - 0.025ms returns 0x00
T824C 000:746.528 JLINK_ReadReg(R0)
T824C 000:746.545 - 0.025ms returns 0x00000000
T824C 000:811.065 JLINK_WriteMem(0x20000000, 0x184 Bytes, ...)
T824C 000:811.091   Data:  00 BE 0A E0 0D 78 2D 06 68 40 08 24 40 00 00 D3 ...
T824C 000:811.129   CPU_WriteMem(388 bytes @ 0x20000000)
T824C 000:813.135 - 2.085ms returns 0x184
T824C 000:813.175 JLINK_HasError()
T824C 000:813.194 JLINK_WriteReg(R0, 0x08000000)
T824C 000:813.213 - 0.027ms returns 0
T824C 000:813.231 JLINK_WriteReg(R1, 0x017D7840)
T824C 000:813.247 - 0.024ms returns 0
T824C 000:813.264 JLINK_WriteReg(R2, 0x00000002)
T824C 000:813.281 - 0.024ms returns 0
T824C 000:813.298 JLINK_WriteReg(R3, 0x00000000)
T824C 000:813.315 - 0.025ms returns 0
T824C 000:813.332 JLINK_WriteReg(R4, 0x00000000)
T824C 000:813.349 - 0.025ms returns 0
T824C 000:813.366 JLINK_WriteReg(R5, 0x00000000)
T824C 000:813.382 - 0.024ms returns 0
T824C 000:813.399 JLINK_WriteReg(R6, 0x00000000)
T824C 000:813.416 - 0.025ms returns 0
T824C 000:813.434 JLINK_WriteReg(R7, 0x00000000)
T824C 000:813.450 - 0.025ms returns 0
T824C 000:813.468 JLINK_WriteReg(R8, 0x00000000)
T824C 000:813.485 - 0.025ms returns 0
T824C 000:813.502 JLINK_WriteReg(R9, 0x20000180)
T824C 000:813.519 - 0.025ms returns 0
T824C 000:813.536 JLINK_WriteReg(R10, 0x00000000)
T824C 000:813.553 - 0.025ms returns 0
T824C 000:813.570 JLINK_WriteReg(R11, 0x00000000)
T824C 000:813.592 - 0.030ms returns 0
T824C 000:813.610 JLINK_WriteReg(R12, 0x00000000)
T824C 000:813.627 - 0.025ms returns 0
T824C 000:813.645 JLINK_WriteReg(R13 (SP), 0x20001000)
T824C 000:813.663 - 0.026ms returns 0
T824C 000:813.680 JLINK_WriteReg(R14, 0x20000001)
T824C 000:813.697 - 0.025ms returns 0
T824C 000:813.714 JLINK_WriteReg(R15 (PC), 0x20000054)
T824C 000:813.732 - 0.025ms returns 0
T824C 000:813.749 JLINK_WriteReg(XPSR, 0x01000000)
T824C 000:813.766 - 0.025ms returns 0
T824C 000:813.783 JLINK_WriteReg(MSP, 0x20001000)
T824C 000:813.801 - 0.025ms returns 0
T824C 000:813.818 JLINK_WriteReg(PSP, 0x20001000)
T824C 000:813.835 - 0.025ms returns 0
T824C 000:813.853 JLINK_WriteReg(CFBP, 0x00000000)
T824C 000:813.869 - 0.024ms returns 0
T824C 000:813.886 JLINK_SetBPEx(Addr = 0x20000000, Type = 0xFFFFFFF2)
T824C 000:813.906   CPU_ReadMem(2 bytes @ 0x20000000)
T824C 000:814.569 - 0.718ms returns 0x00000005
T824C 000:814.632 JLINK_Go()
T824C 000:814.679   CPU_WriteMem(2 bytes @ 0x20000000)
T824C 000:815.439   CPU_ReadMem(4 bytes @ 0xE0001000)
T824C 000:819.013 - 4.397ms
T824C 000:819.041 JLINK_IsHalted()
T824C 000:821.660   CPU_ReadMem(2 bytes @ 0x20000000)
T824C 000:822.461 - 3.452ms returns TRUE
T824C 000:822.520 JLINK_ReadReg(R15 (PC))
T824C 000:822.566 - 0.066ms returns 0x20000000
T824C 000:822.610 JLINK_ClrBPEx(BPHandle = 0x00000005)
T824C 000:822.665 - 0.075ms returns 0x00
T824C 000:822.708 JLINK_ReadReg(R0)
T824C 000:822.749 - 0.062ms returns 0x00000000
T824C 000:823.389 JLINK_WriteMem(0x20000184, 0x27C Bytes, ...)
T824C 000:823.411   Data:  00 4E 00 20 71 02 00 08 59 14 00 08 47 13 00 08 ...
T824C 000:823.447   CPU_WriteMem(636 bytes @ 0x20000184)
T824C 000:826.281 - 2.907ms returns 0x27C
T824C 000:826.307 JLINK_WriteMem(0x20000400, 0x184 Bytes, ...)
T824C 000:826.324   Data:  FE E7 FE E7 FE E7 FE E7 FE E7 FE E7 FE E7 FE E7 ...
T824C 000:826.357   CPU_WriteMem(388 bytes @ 0x20000400)
T824C 000:828.383 - 2.112ms returns 0x184
T824C 000:828.448 JLINK_HasError()
T824C 000:828.493 JLINK_WriteReg(R0, 0x08000000)
T824C 000:828.539 - 0.066ms returns 0
T824C 000:828.582 JLINK_WriteReg(R1, 0x00000400)
T824C 000:828.624 - 0.062ms returns 0
T824C 000:828.667 JLINK_WriteReg(R2, 0x20000184)
T824C 000:828.708 - 0.062ms returns 0
T824C 000:828.751 JLINK_WriteReg(R3, 0x00000000)
T824C 000:828.793 - 0.062ms returns 0
T824C 000:828.836 JLINK_WriteReg(R4, 0x00000000)
T824C 000:828.877 - 0.061ms returns 0
T824C 000:828.919 JLINK_WriteReg(R5, 0x00000000)
T824C 000:828.968 - 0.069ms returns 0
T824C 000:829.011 JLINK_WriteReg(R6, 0x00000000)
T824C 000:829.028 - 0.024ms returns 0
T824C 000:829.045 JLINK_WriteReg(R7, 0x00000000)
T824C 000:829.061 - 0.024ms returns 0
T824C 000:829.079 JLINK_WriteReg(R8, 0x00000000)
T824C 000:829.096 - 0.025ms returns 0
T824C 000:829.113 JLINK_WriteReg(R9, 0x20000180)
T824C 000:829.129 - 0.024ms returns 0
T824C 000:829.146 JLINK_WriteReg(R10, 0x00000000)
T824C 000:829.163 - 0.024ms returns 0
T824C 000:829.180 JLINK_WriteReg(R11, 0x00000000)
T824C 000:829.197 - 0.024ms returns 0
T824C 000:829.217 JLINK_WriteReg(R12, 0x00000000)
T824C 000:829.234 - 0.025ms returns 0
T824C 000:829.253 JLINK_WriteReg(R13 (SP), 0x20001000)
T824C 000:829.270 - 0.025ms returns 0
T824C 000:829.289 JLINK_WriteReg(R14, 0x20000001)
T824C 000:829.306 - 0.025ms returns 0
T824C 000:829.325 JLINK_WriteReg(R15 (PC), 0x2000010C)
T824C 000:829.342 - 0.025ms returns 0
T824C 000:829.361 JLINK_WriteReg(XPSR, 0x01000000)
T824C 000:829.378 - 0.025ms returns 0
T824C 000:829.397 JLINK_WriteReg(MSP, 0x20001000)
T824C 000:829.413 - 0.025ms returns 0
T824C 000:829.432 JLINK_WriteReg(PSP, 0x20001000)
T824C 000:829.449 - 0.028ms returns 0
T824C 000:829.471 JLINK_WriteReg(CFBP, 0x00000000)
T824C 000:829.488 - 0.025ms returns 0
T824C 000:829.507 JLINK_SetBPEx(Addr = 0x20000000, Type = 0xFFFFFFF2)
T824C 000:829.525 - 0.026ms returns 0x00000006
T824C 000:829.544 JLINK_Go()
T824C 000:829.565   CPU_ReadMem(4 bytes @ 0xE0001000)
T824C 000:833.017 - 3.488ms
T824C 000:833.048 JLINK_IsHalted()
T824C 000:833.683 - 0.645ms returns FALSE
T824C 000:833.705 JLINK_HasError()
T824C 000:837.445 JLINK_IsHalted()
T824C 000:840.135   CPU_ReadMem(2 bytes @ 0x20000000)
T824C 000:840.825 - 3.390ms returns TRUE
T824C 000:840.845 JLINK_ReadReg(R15 (PC))
T824C 000:840.863 - 0.026ms returns 0x20000000
T824C 000:840.881 JLINK_ClrBPEx(BPHandle = 0x00000006)
T824C 000:840.898 - 0.025ms returns 0x00
T824C 000:840.915 JLINK_ReadReg(R0)
T824C 000:840.931 - 0.024ms returns 0x00000000
T824C 000:841.488 JLINK_WriteMem(0x20000184, 0x27C Bytes, ...)
T824C 000:841.510   Data:  00 16 8E 40 30 43 50 60 1E 79 06 F0 03 06 03 2E ...
T824C 000:841.539   CPU_WriteMem(636 bytes @ 0x20000184)
T824C 000:844.249 - 2.793ms returns 0x27C
T824C 000:844.307 JLINK_WriteMem(0x20000400, 0x184 Bytes, ...)
T824C 000:844.348   Data:  08 00 00 20 08 B5 00 BF 00 20 00 90 11 48 00 68 ...
T824C 000:844.415   CPU_WriteMem(388 bytes @ 0x20000400)
T824C 000:846.476 - 2.184ms returns 0x184
T824C 000:846.502 JLINK_HasError()
T824C 000:846.520 JLINK_WriteReg(R0, 0x08000400)
T824C 000:846.538 - 0.026ms returns 0
T824C 000:846.555 JLINK_WriteReg(R1, 0x00000400)
T824C 000:846.572 - 0.024ms returns 0
T824C 000:846.589 JLINK_WriteReg(R2, 0x20000184)
T824C 000:846.605 - 0.024ms returns 0
T824C 000:846.622 JLINK_WriteReg(R3, 0x00000000)
T824C 000:846.638 - 0.024ms returns 0
T824C 000:846.655 JLINK_WriteReg(R4, 0x00000000)
T824C 000:846.672 - 0.024ms returns 0
T824C 000:846.688 JLINK_WriteReg(R5, 0x00000000)
T824C 000:846.704 - 0.024ms returns 0
T824C 000:846.721 JLINK_WriteReg(R6, 0x00000000)
T824C 000:846.747 - 0.035ms returns 0
T824C 000:846.769 JLINK_WriteReg(R7, 0x00000000)
T824C 000:846.789 - 0.028ms returns 0
T824C 000:846.806 JLINK_WriteReg(R8, 0x00000000)
T824C 000:846.822 - 0.024ms returns 0
T824C 000:846.839 JLINK_WriteReg(R9, 0x20000180)
T824C 000:846.855 - 0.024ms returns 0
T824C 000:846.872 JLINK_WriteReg(R10, 0x00000000)
T824C 000:846.888 - 0.024ms returns 0
T824C 000:846.905 JLINK_WriteReg(R11, 0x00000000)
T824C 000:846.921 - 0.024ms returns 0
T824C 000:846.938 JLINK_WriteReg(R12, 0x00000000)
T824C 000:846.954 - 0.024ms returns 0
T824C 000:846.971 JLINK_WriteReg(R13 (SP), 0x20001000)
T824C 000:846.988 - 0.024ms returns 0
T824C 000:847.004 JLINK_WriteReg(R14, 0x20000001)
T824C 000:847.021 - 0.024ms returns 0
T824C 000:847.038 JLINK_WriteReg(R15 (PC), 0x2000010C)
T824C 000:847.054 - 0.024ms returns 0
T824C 000:847.071 JLINK_WriteReg(XPSR, 0x01000000)
T824C 000:847.088 - 0.024ms returns 0
T824C 000:847.105 JLINK_WriteReg(MSP, 0x20001000)
T824C 000:847.121 - 0.024ms returns 0
T824C 000:847.140 JLINK_WriteReg(PSP, 0x20001000)
T824C 000:847.160 - 0.030ms returns 0
T824C 000:847.181 JLINK_WriteReg(CFBP, 0x00000000)
T824C 000:847.202 - 0.030ms returns 0
T824C 000:847.223 JLINK_SetBPEx(Addr = 0x20000000, Type = 0xFFFFFFF2)
T824C 000:847.242 - 0.027ms returns 0x00000007
T824C 000:847.259 JLINK_Go()
T824C 000:847.279   CPU_ReadMem(4 bytes @ 0xE0001000)
T824C 000:850.509 - 3.262ms
T824C 000:850.532 JLINK_IsHalted()
T824C 000:851.181 - 0.672ms returns FALSE
T824C 000:851.230 JLINK_HasError()
T824C 000:853.132 JLINK_IsHalted()
T824C 000:853.822 - 0.713ms returns FALSE
T824C 000:853.870 JLINK_HasError()
T824C 000:854.971 JLINK_IsHalted()
T824C 000:857.760   CPU_ReadMem(2 bytes @ 0x20000000)
T824C 000:858.421 - 3.458ms returns TRUE
T824C 000:858.439 JLINK_ReadReg(R15 (PC))
T824C 000:858.456 - 0.025ms returns 0x20000000
T824C 000:858.473 JLINK_ClrBPEx(BPHandle = 0x00000007)
T824C 000:858.490 - 0.024ms returns 0x00
T824C 000:858.507 JLINK_ReadReg(R0)
T824C 000:858.523 - 0.024ms returns 0x00000000
T824C 000:858.959 JLINK_WriteMem(0x20000184, 0x27C Bytes, ...)
T824C 000:858.981   Data:  08 60 44 48 00 68 20 F0 F0 00 A1 68 08 43 41 49 ...
T824C 000:859.009   CPU_WriteMem(636 bytes @ 0x20000184)
T824C 000:861.734 - 2.789ms returns 0x27C
T824C 000:861.764 JLINK_WriteMem(0x20000400, 0x184 Bytes, ...)
T824C 000:861.781   Data:  00 F0 0C 00 04 28 0D D0 F6 48 00 68 00 F0 0C 00 ...
T824C 000:861.809   CPU_WriteMem(388 bytes @ 0x20000400)
T824C 000:864.016 - 2.261ms returns 0x184
T824C 000:864.038 JLINK_HasError()
T824C 000:864.092 JLINK_WriteReg(R0, 0x08000800)
T824C 000:864.110 - 0.026ms returns 0
T824C 000:864.127 JLINK_WriteReg(R1, 0x00000400)
T824C 000:864.144 - 0.024ms returns 0
T824C 000:864.161 JLINK_WriteReg(R2, 0x20000184)
T824C 000:864.177 - 0.024ms returns 0
T824C 000:864.194 JLINK_WriteReg(R3, 0x00000000)
T824C 000:864.210 - 0.024ms returns 0
T824C 000:864.227 JLINK_WriteReg(R4, 0x00000000)
T824C 000:864.243 - 0.024ms returns 0
T824C 000:864.260 JLINK_WriteReg(R5, 0x00000000)
T824C 000:864.276 - 0.024ms returns 0
T824C 000:864.293 JLINK_WriteReg(R6, 0x00000000)
T824C 000:864.309 - 0.024ms returns 0
T824C 000:864.326 JLINK_WriteReg(R7, 0x00000000)
T824C 000:864.342 - 0.024ms returns 0
T824C 000:864.359 JLINK_WriteReg(R8, 0x00000000)
T824C 000:864.375 - 0.024ms returns 0
T824C 000:864.392 JLINK_WriteReg(R9, 0x20000180)
T824C 000:864.408 - 0.024ms returns 0
T824C 000:864.425 JLINK_WriteReg(R10, 0x00000000)
T824C 000:864.441 - 0.024ms returns 0
T824C 000:864.458 JLINK_WriteReg(R11, 0x00000000)
T824C 000:864.474 - 0.024ms returns 0
T824C 000:864.491 JLINK_WriteReg(R12, 0x00000000)
T824C 000:864.507 - 0.024ms returns 0
T824C 000:864.524 JLINK_WriteReg(R13 (SP), 0x20001000)
T824C 000:864.540 - 0.024ms returns 0
T824C 000:864.557 JLINK_WriteReg(R14, 0x20000001)
T824C 000:864.573 - 0.024ms returns 0
T824C 000:864.590 JLINK_WriteReg(R15 (PC), 0x2000010C)
T824C 000:864.606 - 0.024ms returns 0
T824C 000:864.623 JLINK_WriteReg(XPSR, 0x01000000)
T824C 000:864.642 - 0.028ms returns 0
T824C 000:864.659 JLINK_WriteReg(MSP, 0x20001000)
T824C 000:864.676 - 0.024ms returns 0
T824C 000:864.696 JLINK_WriteReg(PSP, 0x20001000)
T824C 000:864.712 - 0.024ms returns 0
T824C 000:864.729 JLINK_WriteReg(CFBP, 0x00000000)
T824C 000:864.745 - 0.024ms returns 0
T824C 000:864.762 JLINK_SetBPEx(Addr = 0x20000000, Type = 0xFFFFFFF2)
T824C 000:864.778 - 0.024ms returns 0x00000008
T824C 000:864.795 JLINK_Go()
T824C 000:864.814   CPU_ReadMem(4 bytes @ 0xE0001000)
T824C 000:868.142 - 3.374ms
T824C 000:868.193 JLINK_IsHalted()
T824C 000:868.917 - 0.732ms returns FALSE
T824C 000:868.935 JLINK_HasError()
T824C 000:870.774 JLINK_IsHalted()
T824C 000:871.541 - 0.776ms returns FALSE
T824C 000:871.559 JLINK_HasError()
T824C 000:872.875 JLINK_IsHalted()
T824C 000:875.502   CPU_ReadMem(2 bytes @ 0x20000000)
T824C 000:876.187 - 3.338ms returns TRUE
T824C 000:876.239 JLINK_ReadReg(R15 (PC))
T824C 000:876.286 - 0.068ms returns 0x20000000
T824C 000:876.332 JLINK_ClrBPEx(BPHandle = 0x00000008)
T824C 000:876.377 - 0.066ms returns 0x00
T824C 000:876.423 JLINK_ReadReg(R0)
T824C 000:876.467 - 0.066ms returns 0x00000000
T824C 000:877.393 JLINK_WriteMem(0x20000184, 0x27C Bytes, ...)
T824C 000:877.416   Data:  14 E0 00 20 97 49 08 60 FF F7 BA FC 05 46 06 E0 ...
T824C 000:877.443   CPU_WriteMem(636 bytes @ 0x20000184)
T824C 000:880.252 - 2.884ms returns 0x27C
T824C 000:880.303 JLINK_WriteMem(0x20000400, 0x184 Bytes, ...)
T824C 000:880.348   Data:  06 E0 FF F7 7F FB 40 1B 02 28 01 D9 03 20 EF E5 ...
T824C 000:880.418   CPU_WriteMem(388 bytes @ 0x20000400)
T824C 000:882.541 - 2.272ms returns 0x184
T824C 000:882.602 JLINK_HasError()
T824C 000:882.645 JLINK_WriteReg(R0, 0x08000C00)
T824C 000:882.690 - 0.064ms returns 0
T824C 000:882.732 JLINK_WriteReg(R1, 0x00000400)
T824C 000:882.773 - 0.061ms returns 0
T824C 000:882.815 JLINK_WriteReg(R2, 0x20000184)
T824C 000:882.856 - 0.060ms returns 0
T824C 000:882.897 JLINK_WriteReg(R3, 0x00000000)
T824C 000:882.937 - 0.060ms returns 0
T824C 000:882.979 JLINK_WriteReg(R4, 0x00000000)
T824C 000:883.019 - 0.060ms returns 0
T824C 000:883.061 JLINK_WriteReg(R5, 0x00000000)
T824C 000:883.101 - 0.060ms returns 0
T824C 000:883.130 JLINK_WriteReg(R6, 0x00000000)
T824C 000:883.146 - 0.024ms returns 0
T824C 000:883.163 JLINK_WriteReg(R7, 0x00000000)
T824C 000:883.179 - 0.024ms returns 0
T824C 000:883.195 JLINK_WriteReg(R8, 0x00000000)
T824C 000:883.211 - 0.024ms returns 0
T824C 000:883.228 JLINK_WriteReg(R9, 0x20000180)
T824C 000:883.245 - 0.024ms returns 0
T824C 000:883.261 JLINK_WriteReg(R10, 0x00000000)
T824C 000:883.278 - 0.024ms returns 0
T824C 000:883.294 JLINK_WriteReg(R11, 0x00000000)
T824C 000:883.310 - 0.024ms returns 0
T824C 000:883.327 JLINK_WriteReg(R12, 0x00000000)
T824C 000:883.343 - 0.024ms returns 0
T824C 000:883.360 JLINK_WriteReg(R13 (SP), 0x20001000)
T824C 000:883.376 - 0.024ms returns 0
T824C 000:883.393 JLINK_WriteReg(R14, 0x20000001)
T824C 000:883.409 - 0.024ms returns 0
T824C 000:883.426 JLINK_WriteReg(R15 (PC), 0x2000010C)
T824C 000:883.443 - 0.024ms returns 0
T824C 000:883.459 JLINK_WriteReg(XPSR, 0x01000000)
T824C 000:883.475 - 0.024ms returns 0
T824C 000:883.492 JLINK_WriteReg(MSP, 0x20001000)
T824C 000:883.508 - 0.024ms returns 0
T824C 000:883.525 JLINK_WriteReg(PSP, 0x20001000)
T824C 000:883.541 - 0.024ms returns 0
T824C 000:883.558 JLINK_WriteReg(CFBP, 0x00000000)
T824C 000:883.574 - 0.024ms returns 0
T824C 000:883.591 JLINK_SetBPEx(Addr = 0x20000000, Type = 0xFFFFFFF2)
T824C 000:883.608 - 0.024ms returns 0x00000009
T824C 000:883.625 JLINK_Go()
T824C 000:883.644   CPU_ReadMem(4 bytes @ 0xE0001000)
T824C 000:887.023 - 3.428ms
T824C 000:887.079 JLINK_IsHalted()
T824C 000:887.789 - 0.718ms returns FALSE
T824C 000:887.807 JLINK_HasError()
T824C 000:890.263 JLINK_IsHalted()
T824C 000:891.054 - 0.812ms returns FALSE
T824C 000:891.099 JLINK_HasError()
T824C 000:892.369 JLINK_IsHalted()
T824C 000:895.133   CPU_ReadMem(2 bytes @ 0x20000000)
T824C 000:895.941 - 3.600ms returns TRUE
T824C 000:895.998 JLINK_ReadReg(R15 (PC))
T824C 000:896.045 - 0.068ms returns 0x20000000
T824C 000:896.091 JLINK_ClrBPEx(BPHandle = 0x00000009)
T824C 000:896.135 - 0.066ms returns 0x00
T824C 000:896.181 JLINK_ReadReg(R0)
T824C 000:896.225 - 0.071ms returns 0x00000000
T824C 000:896.674 JLINK_WriteMem(0x20000184, 0x27C Bytes, ...)
T824C 000:896.697   Data:  04 46 20 68 C5 68 20 68 06 69 06 F0 02 00 02 28 ...
T824C 000:896.725   CPU_WriteMem(636 bytes @ 0x20000184)
T824C 000:899.503 - 2.843ms returns 0x27C
T824C 000:899.528 JLINK_WriteMem(0x20000400, 0x184 Bytes, ...)
T824C 000:899.545   Data:  00 10 01 40 44 38 02 40 00 00 02 40 2D E9 F8 4F ...
T824C 000:899.572   CPU_WriteMem(388 bytes @ 0x20000400)
T824C 000:901.606 - 2.089ms returns 0x184
T824C 000:901.628 JLINK_HasError()
T824C 000:901.645 JLINK_WriteReg(R0, 0x08001000)
T824C 000:901.663 - 0.025ms returns 0
T824C 000:901.680 JLINK_WriteReg(R1, 0x00000400)
T824C 000:901.696 - 0.024ms returns 0
T824C 000:901.713 JLINK_WriteReg(R2, 0x20000184)
T824C 000:901.729 - 0.024ms returns 0
T824C 000:901.746 JLINK_WriteReg(R3, 0x00000000)
T824C 000:901.762 - 0.024ms returns 0
T824C 000:901.778 JLINK_WriteReg(R4, 0x00000000)
T824C 000:901.794 - 0.024ms returns 0
T824C 000:901.811 JLINK_WriteReg(R5, 0x00000000)
T824C 000:901.827 - 0.024ms returns 0
T824C 000:901.844 JLINK_WriteReg(R6, 0x00000000)
T824C 000:901.860 - 0.024ms returns 0
T824C 000:901.877 JLINK_WriteReg(R7, 0x00000000)
T824C 000:901.893 - 0.024ms returns 0
T824C 000:901.910 JLINK_WriteReg(R8, 0x00000000)
T824C 000:901.926 - 0.024ms returns 0
T824C 000:901.943 JLINK_WriteReg(R9, 0x20000180)
T824C 000:901.959 - 0.024ms returns 0
T824C 000:901.976 JLINK_WriteReg(R10, 0x00000000)
T824C 000:901.992 - 0.024ms returns 0
T824C 000:902.008 JLINK_WriteReg(R11, 0x00000000)
T824C 000:902.025 - 0.024ms returns 0
T824C 000:902.041 JLINK_WriteReg(R12, 0x00000000)
